# Final Verification Summary: `axis_add_one`

**Date:** 2026-05-03
**Verification Agent:** RTL Verification Agent (Agent 4)
**RTL Designer:** RTL Designer Agent (Agent 3)
**Handoff document:** `ai_context/verification_handoff_axis_add_one.md`

---

## DUT

| Field | Value |
|-------|-------|
| Module | `axis_add_one` |
| RTL file | `rtl/axis_add_one.v` |
| Language | Verilog-2001 |
| Category | CAT-4 — AXI-Stream Processing Block |
| Profile | `ai_context/dut_profile_axistream_block.md` |
| Sub-modules | None |
| Parameter | `DATA_WIDTH=32` |

---

## Campaign Summary

| Metric | Value |
|--------|-------|
| Tests run | 10 |
| Total checks | 146 |
| Checks passed | 146 |
| Checks failed | 0 |
| CI grep gate | PASS (exit code 0) |
| Simulation end time | ~5600 ns |
| Testbench | `tb/axis_add_one_tb.sv` |
| Simulation script | `scripts/run_axis_add_one_sim.sh` |
| Simulation log | `logs/axis_add_one_xsim.log` |

---

## Tests Run

| # | Name | Checks | Result | Handoff ID |
|---|------|--------|--------|------------|
| T1 | Reset defaults | 3 | PASS | T-RST |
| T2 | Single-beat transfer | 2 | PASS | T-SINGLE |
| T3 | Multi-beat packet (4 beats) | 8 | PASS | T-MULTI |
| T4 | Back-to-back throughput (6 beats) | 18 | PASS | T-BP-BOTH, T-THRPT |
| T5 | Output backpressure | 11 | PASS | T-BP-DN |
| T6 | Input stall (idle cycles) | 6 | PASS | T-BP-UP |
| T7 | Wraparound (0xFFFFFFFF+1) | 2 | PASS | T-WRAP |
| T8 | tlast propagation (3 packet types) | 12 | PASS | T-TLAST |
| T9 | Reset mid-packet + recovery | 6 | PASS | T-RST-MID |
| T10 | LFSR smoke (39 beats, 10 packets) | 78 | PASS | T-SMOKE |

---

## Scoreboard Rule Verified

```
output_tdata[i] = input_tdata[i] + 1  (mod 2^32, natural truncation)
output_tlast[i] = input_tlast[i]
```

All 146 checks are scoreboard-driven or direct signal assertions. No manual golden values for T10 — LFSR data verified end-to-end.

---

## Agent 3 → Agent 4 Handoff Assessment

**This is the first Agent 3 → Agent 4 handoff experiment using an AXI-Stream DUT.**

The handoff used:
- `ai_context/architecture_spec_axis_add_one.md` (pre-RTL, complete)
- `ai_context/interface_contract_axis_add_one.md` (pre-RTL, complete)
- `ai_context/microarch_report_axis_add_one.md` (post-RTL, complete)
- `ai_context/verification_handoff_axis_add_one.md` (post-RTL, with required test list and scoreboard rule)

**Result: HANDOFF SUCCEEDED.** All 12 handoff-required tests are covered by TB tests T1–T10. The interface contract and microarchitecture report were sufficient to write the testbench without RTL modification or contract ambiguity.

---

## Findings During Verification

### Contract Ambiguities Found: None
The interface contract was unambiguous. The backpressure rule `s_tready = !m_tvalid || m_tready` was clearly stated and verified in T5 and T4.

### RTL Bugs Found: None
The RTL matched the interface contract and microarchitecture report exactly. No RTL modifications were made.

### Script Issues Found and Fixed
1. **Timescale mismatch**: `rtl/axis_add_one.v` has no `timescale` directive; `tb/axis_add_one_tb.sv` has ``timescale 1ns/1ps`. Fix: pass `-timescale 1ns/1ps` to `xelab`. This is a simulation-only issue; RTL was not modified.

### Testbench Bugs Found and Fixed
1. **Sequential send+drain pattern**: Tests T3/T6/T8 initially used `send_beat × N` followed by `drain_scoreboard`. With `m_tready=1`, the DUT's 1-cycle output window closed before the drain ran, causing scoreboard mismatches. Fix: interleaved `send_beat` + `wait_output_beat` for each beat.
2. **Back-to-back test (T4)**: Required a custom driving loop (no deassert between beats) to exercise the simultaneous consume+accept path (DUT branch 2 with `m_tvalid=1 && m_tready=1 && s_tvalid=1`). Cannot be tested with the standard `send_beat` helper.
3. **m_tready race condition (T5, T9)**: Assigning `m_axis_tready = 0` in the posedge active region created a race with the DUT's `always @posedge` branch 3 evaluation. If the initial block's assignment executed before the DUT's always block, branch 3 saw `m_tready=0` and did not clear `m_tvalid`, causing `s_tready=0` and `send_beat` timeout. Fix: always drive `m_tready` at negedge. This is a testbench protocol rule for AXI-Stream DUTs.

---

## AXI-Stream Testbench Protocol Observations (for Profile Update)

The following observations are recommended for updating `dut_profile_axistream_block.md`:

1. **Negedge-drive discipline applies to ALL signals including m_tready.** Driving m_tready in the posedge active region causes a race with the DUT's clocked always block. All signal drives must be at negedge.
2. **Interleave send+check, not batch-then-drain.** With 1-cycle registered latency and m_tready=1, each output beat is only visible for one posedge. Batch-then-drain misses all but the last output.
3. **Back-to-back throughput test requires custom driving.** The standard `send_beat` helper (drive, handshake, deassert) cannot test simultaneous consume+accept. A manual loop holding `s_tvalid=1` continuously is required.

---

## Remaining Limitations

| Item | Reason |
|------|--------|
| `tkeep`, `tstrb`, `tuser` not tested | Not implemented in DUT |
| `DATA_WIDTH != 32` not tested | Out of scope for initial campaign |
| Output backpressure in T10 smoke test | T10 uses input idles only; backpressure covered by T5 |
| Formal liveness proof (`s_tready` eventually 1) | Out of scope for simulation-only phase |
| Physical timing / FPGA board validation | Agent 5 scope |

---

## Deferred Items (from Handoff)

| Item | Status |
|------|--------|
| `tkeep`/`tstrb`/`tuser` sideband | Deferred — not implemented in RTL |
| DATA_WIDTH != 32 parametric sweep | Deferred |
| Formal liveness proof | Deferred |
| FPGA board validation | Deferred to Agent 5 |
| Multiple simultaneous outstanding inputs | Not applicable (1-entry buffer) |

---

*Simulation log: `logs/axis_add_one_xsim.log`*
*Verification matrix: `ai_context/verification_matrix_axis_add_one.md`*
*Prompt backup: `md_files/verification_agent/29_axis_add_one_verification_prompt.md`*
